
T1A6C 000:278 SEGGER J-Link V4.96d Log File (0001ms, 0264ms total)
T1A6C 000:278 DLL Compiled: Jan 29 2015 11:45:37 (0001ms, 0264ms total)
T1A6C 000:278 Logging started @ 2016-05-17 22:28 (0001ms, 0264ms total)
T1A6C 000:279 JLINK_SetWarnOutHandler(...) (0000ms, 0264ms total)
T1A6C 000:279 JLINK_OpenEx(...)
Firmware: J-Link ARM V8 compiled Nov 28 2014 13:44:46
Hardware: V8.00
S/N: 17935099
Feature(s): RDI,FlashDL,FlashBP,JFlash  returns O.K. (0261ms, 0525ms total)
T1A6C 000:540 JLINK_SetErrorOutHandler(...) (0000ms, 0525ms total)
T1A6C 000:540 JLINK_ExecCommand("ProjectFile = "C:\Users\Yuyaowen\Desktop\stepone\remote-controller\proj\JLinkSettings.ini"", ...)  returns 0x00 (0001ms, 0526ms total)
T1A6C 000:544 JLINK_ExecCommand("Device = STM32F030C8", ...)Device "STM32F030C8" selected.  returns 0x00 (0008ms, 0534ms total)
T1A6C 000:552 JLINK_ExecCommand("DisableConnectionTimeout", ...)  returns 0x01 (0000ms, 0534ms total)
T1A6C 000:552 JLINK_GetHardwareVersion()  returns 0x13880 (0000ms, 0534ms total)
T1A6C 000:552 JLINK_GetDLLVersion()  returns 49604 (0000ms, 0534ms total)
T1A6C 000:552 JLINK_GetFirmwareString(...) (0000ms, 0534ms total)
T1A6C 000:563 JLINK_GetDLLVersion()  returns 49604 (0000ms, 0534ms total)
T1A6C 000:563 JLINK_GetCompileDateTime() (0000ms, 0534ms total)
T1A6C 000:565 JLINK_GetFirmwareString(...) (0000ms, 0534ms total)
T1A6C 000:568 JLINK_GetHardwareVersion()  returns 0x13880 (0000ms, 0534ms total)
T1A6C 000:578 JLINK_TIF_Select(JLINKARM_TIF_SWD)  returns 0x00 (0001ms, 0535ms total)
T1A6C 000:579 JLINK_SetSpeed(20000) (0000ms, 0535ms total)
T1A6C 000:579 JLINK_GetId() >0x108 TIF>Found SWD-DP with ID 0x0BB11477 >0x0D TIF> >0x28 TIF> >0x0D TIF> >0x28 TIF> >0x0D TIF> >0x21 TIF> >0x0D TIF> >0x28 TIF> >0x0D TIF> >0x28 TIF> >0x0D TIF> >0x28 TIF> >0x0D TIF> >0x21 TIF> >0x0D TIF> >0x21 TIF> >0x0D TIF> >0x28 TIF> >0x0D TIF> >0x21 TIF> >0x0D TIF> >0x21 TIF> >0x0D TIF> >0x28 TIF> >0x0D TIF> >0x21 TIF> >0x0D TIF> >0x21 TIF> >0x0D TIF> >0x28 TIF> >0x0D TIF> >0x28 TIF> >0x0D TIF> >0x28 TIF> >0x0D TIF> >0x21 TIF> >0x0D TIF> >0x21 TIF> >0x0D TIF>
 >0x28 TIF> >0x0D TIF> >0x28 TIF> >0x108 TIF>Found SWD-DP with ID 0x0BB11477 >0x0D TIF> >0x21 TIF> >0x0D TIF> >0x28 TIF> >0x0D TIF> >0x28 TIF> >0x0D TIF> >0x21 TIF> >0x0D TIF> >0x28 TIF> >0x0D TIF> >0x21 TIF> >0x0D TIF> >0x21 TIF> >0x0D TIF> >0x21 TIF> >0x0D TIF> >0x21 TIF> >0x0D TIF> >0x28 TIF> >0x0D TIF> >0x28 TIF> >0x0D TIF> >0x21 TIF> >0x0D TIF> >0x28 TIF> >0x0D TIF> >0x28 TIF> >0x0D TIF> >0x28 TIF> >0x0D TIF> >0x21 TIF> >0x0D TIF> >0x21 TIF> >0x0D TIF> >0x28 TIF> >0x0D TIF> >0x21 TIF> >0x0D TIF>
 >0x21 TIF>Found Cortex-M0 r0p0, Little endian. -- CPU_WriteMem(4 bytes @ 0xE0002000) -- CPU_ReadMem(4 bytes @ 0xE000EDF0) -- CPU_ReadMem(4 bytes @ 0xE0002000)FPUnit: 4 code (BP) slots and 0 literal slots -- CPU_ReadMem(4 bytes @ 0xE000EDFC) -- CPU_ReadMem(4 bytes @ 0xE0001000) -- CPU_WriteMem(4 bytes @ 0xE0001000) -- CPU_ReadMem(4 bytes @ 0xE00FF018) -- CPU_WriteMem(8192 bytes @ 0x20000000)
                JLINK_Go() (0001ms, 0001ms total)
               >0x0D TIF> >0x21 TIF>  returns 0x0BB11477 (0091ms, 0626ms total)
T1A6C 000:670 JLINK_GetDLLVersion()  returns 49604 (0000ms, 0626ms total)
T1A6C 000:670 JLINK_CORE_GetFound()  returns 0x60000FF (0000ms, 0626ms total)
T1A6C 000:670 JLINK_GetDebugInfo(0x100) -- Value=0xE00FF003  returns 0x00 (0000ms, 0626ms total)
T1A6C 000:673 JLINK_ReadMem (0xE00FF000, 0x0020 Bytes, ...) -- CPU is running -- CPU_ReadMem(32 bytes @ 0xE00FF000) - Data: 03 F0 F0 FF 03 20 F0 FF 03 30 F0 FF 00 00 00 00 ...  returns 0x00 (0001ms, 0627ms total)
T1A6C 000:674 JLINK_ReadMem (0xE000EFF0, 0x0010 Bytes, ...) -- CPU is running -- CPU_ReadMem(16 bytes @ 0xE000EFF0) - Data: 0D 00 00 00 E0 00 00 00 05 00 00 00 B1 00 00 00  returns 0x00 (0000ms, 0627ms total)
T1A6C 000:674 JLINK_ReadMem (0xE000EFD0, 0x0020 Bytes, ...) -- CPU is running -- CPU_ReadMem(32 bytes @ 0xE000EFD0) - Data: 04 00 00 00 00 00 00 00 00 00 00 00 00 00 00 00 ...  returns 0x00 (0001ms, 0628ms total)
T1A6C 000:675 JLINK_ReadMem (0xE0001FF0, 0x0010 Bytes, ...) -- CPU is running -- CPU_ReadMem(16 bytes @ 0xE0001FF0) - Data: 0D 00 00 00 E0 00 00 00 05 00 00 00 B1 00 00 00  returns 0x00 (0001ms, 0629ms total)
T1A6C 000:676 JLINK_ReadMem (0xE0001FD0, 0x0020 Bytes, ...) -- CPU is running -- CPU_ReadMem(32 bytes @ 0xE0001FD0) - Data: 04 00 00 00 00 00 00 00 00 00 00 00 00 00 00 00 ...  returns 0x00 (0000ms, 0629ms total)
T1A6C 000:676 JLINK_ReadMem (0xE0002FF0, 0x0010 Bytes, ...) -- CPU is running -- CPU_ReadMem(16 bytes @ 0xE0002FF0) - Data: 0D 00 00 00 E0 00 00 00 05 00 00 00 B1 00 00 00  returns 0x00 (0001ms, 0630ms total)
T1A6C 000:677 JLINK_ReadMem (0xE0002FD0, 0x0020 Bytes, ...) -- CPU is running -- CPU_ReadMem(32 bytes @ 0xE0002FD0) - Data: 04 00 00 00 00 00 00 00 00 00 00 00 00 00 00 00 ...  returns 0x00 (0001ms, 0631ms total)
T1A6C 000:678 JLINK_ReadMemU32(0xE000ED00, 0x0001 Items, ...) -- CPU is running -- CPU_ReadMem(4 bytes @ 0xE000ED00) - Data: 00 C2 0C 41  returns 0x01 (0000ms, 0631ms total)
T1A6C 000:678 JLINK_SetResetType(JLINKARM_RESET_TYPE_NORMAL)  returns JLINKARM_RESET_TYPE_NORMAL (0000ms, 0631ms total)
T1A6C 000:678 JLINK_Reset() -- CPU_ReadMem(4 bytes @ 0x20000000) -- CPU_WriteMem(4 bytes @ 0x20000000) -- CPU is running -- CPU_WriteMem(4 bytes @ 0xE000EDF0) -- CPU is running -- CPU_WriteMem(4 bytes @ 0xE000EDFC) >0x35 TIF> -- CPU is running -- CPU_WriteMem(4 bytes @ 0xE000ED0C) -- CPU is running -- CPU_ReadMem(4 bytes @ 0xE000EDF0) -- CPU is running -- CPU_ReadMem(4 bytes @ 0xE000EDF0) -- CPU is running -- CPU_WriteMem(4 bytes @ 0xE000EDF0) -- CPU is running -- CPU_WriteMem(4 bytes @ 0xE000EDFC)
 -- CPU is running -- CPU_ReadMem(4 bytes @ 0xE000EDF0) -- CPU_WriteMem(4 bytes @ 0xE0002000) -- CPU_ReadMem(4 bytes @ 0xE000EDFC) -- CPU_ReadMem(4 bytes @ 0xE0001000) -- CPU_WriteMem(4 bytes @ 0xE0001000) (0018ms, 0649ms total)
T1A6C 000:696 JLINK_Halt()  returns 0x00 (0000ms, 0649ms total)
T1A6C 000:696 JLINK_IsHalted()  returns TRUE (0000ms, 0649ms total)
T1A6C 000:696 JLINK_ReadMemU32(0xE000EDF0, 0x0001 Items, ...) -- CPU_ReadMem(4 bytes @ 0xE000EDF0) - Data: 03 00 03 00  returns 0x01 (0001ms, 0650ms total)
T1A6C 000:697 JLINK_WriteU32(0xE000EDF0, 0xA05F0003) -- CPU_WriteMem(4 bytes @ 0xE000EDF0)  returns 0x00 (0000ms, 0650ms total)
T1A6C 000:697 JLINK_WriteU32(0xE000EDFC, 0x01000000) -- CPU_WriteMem(4 bytes @ 0xE000EDFC)  returns 0x00 (0001ms, 0651ms total)
T1A6C 000:706 JLINK_GetHWStatus(...)  returns 0x00 (0000ms, 0651ms total)
T1A6C 000:713 JLINK_GetNumBPUnits(Type = 0xFFFFFF00)  returns 0x04 (0000ms, 0651ms total)
T1A6C 000:713 JLINK_GetNumBPUnits(Type = 0xF0)  returns 0x2000 (0000ms, 0651ms total)
T1A6C 000:713 JLINK_GetNumWPUnits()  returns 0x02 (0000ms, 0651ms total)
T1A6C 000:721 JLINK_GetSpeed()  returns 0xFA0 (0000ms, 0651ms total)
T1A6C 000:725 JLINK_ReadMemU32(0xE000E004, 0x0001 Items, ...) -- CPU_ReadMem(4 bytes @ 0xE000E004) - Data: 00 00 00 00  returns 0x01 (0000ms, 0651ms total)
T1A6C 000:725 JLINK_Halt()  returns 0x00 (0000ms, 0651ms total)
T1A6C 000:725 JLINK_IsHalted()  returns TRUE (0000ms, 0651ms total)
T1A6C 000:730 JLINK_WriteMem(0x20000000, 0x0170 Bytes, ...) - Data: 00 BE 0A E0 0D 78 2D 06 68 40 08 24 40 00 00 D3 ... -- CPU_WriteMem(368 bytes @ 0x20000000)  returns 0x170 (0003ms, 0654ms total)
T1A6C 000:733 JLINK_WriteReg(R0, 0x08000000)  returns 0x00 (0000ms, 0654ms total)
T1A6C 000:733 JLINK_WriteReg(R1, 0x00B71B00)  returns 0x00 (0000ms, 0654ms total)
T1A6C 000:733 JLINK_WriteReg(R2, 0x00000001)  returns 0x00 (0000ms, 0654ms total)
T1A6C 000:733 JLINK_WriteReg(R3, 0x00000000)  returns 0x00 (0000ms, 0654ms total)
T1A6C 000:733 JLINK_WriteReg(R4, 0x00000000)  returns 0x00 (0000ms, 0654ms total)
T1A6C 000:733 JLINK_WriteReg(R5, 0x00000000)  returns 0x00 (0000ms, 0654ms total)
T1A6C 000:733 JLINK_WriteReg(R6, 0x00000000)  returns 0x00 (0000ms, 0654ms total)
T1A6C 000:733 JLINK_WriteReg(R7, 0x00000000)  returns 0x00 (0000ms, 0654ms total)
T1A6C 000:733 JLINK_WriteReg(R8, 0x00000000)  returns 0x00 (0000ms, 0654ms total)
T1A6C 000:733 JLINK_WriteReg(R9, 0x2000016C)  returns 0x00 (0000ms, 0654ms total)
T1A6C 000:733 JLINK_WriteReg(R10, 0x00000000)  returns 0x00 (0001ms, 0655ms total)
T1A6C 000:734 JLINK_WriteReg(R11, 0x00000000)  returns 0x00 (0000ms, 0655ms total)
T1A6C 000:734 JLINK_WriteReg(R12, 0x00000000)  returns 0x00 (0000ms, 0655ms total)
T1A6C 000:734 JLINK_WriteReg(R13 (SP), 0x20001000)  returns 0x00 (0000ms, 0655ms total)
T1A6C 000:734 JLINK_WriteReg(R14, 0x20000001)  returns 0x00 (0000ms, 0655ms total)
T1A6C 000:734 JLINK_WriteReg(R15 (PC), 0x20000038)  returns 0x00 (0000ms, 0655ms total)
T1A6C 000:734 JLINK_WriteReg(XPSR, 0x01000000)  returns 0x00 (0000ms, 0655ms total)
T1A6C 000:734 JLINK_WriteReg(MSP, 0x20001000)  returns 0x00 (0000ms, 0655ms total)
T1A6C 000:734 JLINK_WriteReg(PSP, 0x20001000)  returns 0x00 (0000ms, 0655ms total)
T1A6C 000:734 JLINK_WriteReg(CFBP, 0x00000000)  returns 0x00 (0000ms, 0655ms total)
T1A6C 000:734 JLINK_SetBPEx(Addr = 0x20000000, Type = 0xFFFFFFF2) -- CPU_ReadMem(2 bytes @ 0x20000000)  returns 0x00000001 (0000ms, 0655ms total)
T1A6C 000:734 JLINK_Go() -- CPU_WriteMem(2 bytes @ 0x20000000) -- CPU_WriteMem(4 bytes @ 0xE0002008) -- CPU_WriteMem(4 bytes @ 0xE000200C) -- CPU_WriteMem(4 bytes @ 0xE0002010) -- CPU_WriteMem(4 bytes @ 0xE0002014) -- CPU_WriteMem(4 bytes @ 0xE0001004) (0006ms, 0661ms total)
T1A6C 000:740 JLINK_IsHalted() -- CPU_ReadMem(2 bytes @ 0x20000000)  returns TRUE (0002ms, 0663ms total)
T1A6C 000:742 JLINK_ReadReg(R15 (PC))  returns 0x20000000 (0000ms, 0661ms total)
T1A6C 000:742 JLINK_ClrBPEx(BPHandle = 0x00000001)  returns 0x00 (0000ms, 0661ms total)
T1A6C 000:742 JLINK_ReadReg(R0)  returns 0x00000000 (0000ms, 0661ms total)
T1A6C 000:743 JLINK_WriteReg(R0, 0x08000000)  returns 0x00 (0000ms, 0661ms total)
T1A6C 000:743 JLINK_WriteReg(R1, 0x00000400)  returns 0x00 (0000ms, 0661ms total)
T1A6C 000:743 JLINK_WriteReg(R2, 0x000000FF)  returns 0x00 (0000ms, 0661ms total)
T1A6C 000:743 JLINK_WriteReg(R3, 0x00000000)  returns 0x00 (0000ms, 0661ms total)
T1A6C 000:743 JLINK_WriteReg(R4, 0x00000000)  returns 0x00 (0000ms, 0661ms total)
T1A6C 000:743 JLINK_WriteReg(R5, 0x00000000)  returns 0x00 (0000ms, 0661ms total)
T1A6C 000:743 JLINK_WriteReg(R6, 0x00000000)  returns 0x00 (0000ms, 0661ms total)
T1A6C 000:743 JLINK_WriteReg(R7, 0x00000000)  returns 0x00 (0000ms, 0661ms total)
T1A6C 000:743 JLINK_WriteReg(R8, 0x00000000)  returns 0x00 (0000ms, 0661ms total)
T1A6C 000:743 JLINK_WriteReg(R9, 0x2000016C)  returns 0x00 (0000ms, 0661ms total)
T1A6C 000:743 JLINK_WriteReg(R10, 0x00000000)  returns 0x00 (0000ms, 0661ms total)
T1A6C 000:743 JLINK_WriteReg(R11, 0x00000000)  returns 0x00 (0000ms, 0661ms total)
T1A6C 000:743 JLINK_WriteReg(R12, 0x00000000)  returns 0x00 (0000ms, 0661ms total)
T1A6C 000:743 JLINK_WriteReg(R13 (SP), 0x20001000)  returns 0x00 (0000ms, 0661ms total)
T1A6C 000:743 JLINK_WriteReg(R14, 0x20000001)  returns 0x00 (0000ms, 0661ms total)
T1A6C 000:743 JLINK_WriteReg(R15 (PC), 0x20000020)  returns 0x00 (0000ms, 0661ms total)
T1A6C 000:743 JLINK_WriteReg(XPSR, 0x01000000)  returns 0x00 (0000ms, 0661ms total)
T1A6C 000:743 JLINK_WriteReg(MSP, 0x20001000)  returns 0x00 (0000ms, 0661ms total)
T1A6C 000:743 JLINK_WriteReg(PSP, 0x20001000)  returns 0x00 (0000ms, 0661ms total)
T1A6C 000:743 JLINK_WriteReg(CFBP, 0x00000000)  returns 0x00 (0000ms, 0661ms total)
T1A6C 000:743 JLINK_SetBPEx(Addr = 0x20000000, Type = 0xFFFFFFF2)  returns 0x00000002 (0000ms, 0661ms total)
T1A6C 000:743 JLINK_Go() (0002ms, 0663ms total)
T1A6C 000:745 JLINK_IsHalted() -- CPU_ReadMem(2 bytes @ 0x20000000)  returns TRUE (0003ms, 0666ms total)
T1A6C 000:748 JLINK_ReadReg(R15 (PC))  returns 0x20000000 (0000ms, 0663ms total)
T1A6C 000:748 JLINK_ClrBPEx(BPHandle = 0x00000002)  returns 0x00 (0000ms, 0663ms total)
T1A6C 000:748 JLINK_ReadReg(R0)  returns 0x00000001 (0000ms, 0663ms total)
T1A6C 000:748 JLINK_WriteReg(R0, 0x08000000)  returns 0x00 (0000ms, 0663ms total)
T1A6C 000:748 JLINK_WriteReg(R1, 0x00000400)  returns 0x00 (0000ms, 0663ms total)
T1A6C 000:748 JLINK_WriteReg(R2, 0x000000FF)  returns 0x00 (0000ms, 0663ms total)
T1A6C 000:748 JLINK_WriteReg(R3, 0x00000000)  returns 0x00 (0000ms, 0663ms total)
T1A6C 000:748 JLINK_WriteReg(R4, 0x00000000)  returns 0x00 (0000ms, 0663ms total)
T1A6C 000:748 JLINK_WriteReg(R5, 0x00000000)  returns 0x00 (0000ms, 0663ms total)
T1A6C 000:748 JLINK_WriteReg(R6, 0x00000000)  returns 0x00 (0000ms, 0663ms total)
T1A6C 000:748 JLINK_WriteReg(R7, 0x00000000)  returns 0x00 (0000ms, 0663ms total)
T1A6C 000:748 JLINK_WriteReg(R8, 0x00000000)  returns 0x00 (0000ms, 0663ms total)
T1A6C 000:748 JLINK_WriteReg(R9, 0x2000016C)  returns 0x00 (0000ms, 0663ms total)
T1A6C 000:748 JLINK_WriteReg(R10, 0x00000000)  returns 0x00 (0000ms, 0663ms total)
T1A6C 000:748 JLINK_WriteReg(R11, 0x00000000)  returns 0x00 (0000ms, 0663ms total)
T1A6C 000:748 JLINK_WriteReg(R12, 0x00000000)  returns 0x00 (0001ms, 0664ms total)
T1A6C 000:749 JLINK_WriteReg(R13 (SP), 0x20001000)  returns 0x00 (0000ms, 0664ms total)
T1A6C 000:749 JLINK_WriteReg(R14, 0x20000001)  returns 0x00 (0000ms, 0664ms total)
T1A6C 000:749 JLINK_WriteReg(R15 (PC), 0x200000B8)  returns 0x00 (0000ms, 0664ms total)
T1A6C 000:749 JLINK_WriteReg(XPSR, 0x01000000)  returns 0x00 (0000ms, 0664ms total)
T1A6C 000:749 JLINK_WriteReg(MSP, 0x20001000)  returns 0x00 (0000ms, 0664ms total)
T1A6C 000:749 JLINK_WriteReg(PSP, 0x20001000)  returns 0x00 (0000ms, 0664ms total)
T1A6C 000:749 JLINK_WriteReg(CFBP, 0x00000000)  returns 0x00 (0000ms, 0664ms total)
T1A6C 000:749 JLINK_SetBPEx(Addr = 0x20000000, Type = 0xFFFFFFF2)  returns 0x00000003 (0000ms, 0664ms total)
T1A6C 000:749 JLINK_Go() (0001ms, 0665ms total)
T1A6C 000:750 JLINK_IsHalted()  returns FALSE (0001ms, 0666ms total)
T1A6C 000:832 JLINK_IsHalted() -- CPU_ReadMem(2 bytes @ 0x20000000)  returns TRUE (0002ms, 0667ms total)
T1A6C 000:834 JLINK_ReadReg(R15 (PC))  returns 0x20000000 (0000ms, 0665ms total)
T1A6C 000:834 JLINK_ClrBPEx(BPHandle = 0x00000003)  returns 0x00 (0001ms, 0666ms total)
T1A6C 000:835 JLINK_ReadReg(R0)  returns 0x00000000 (0000ms, 0666ms total)
T1A6C 000:835 JLINK_WriteReg(R0, 0x08000400)  returns 0x00 (0000ms, 0666ms total)
T1A6C 000:835 JLINK_WriteReg(R1, 0x00000400)  returns 0x00 (0000ms, 0666ms total)
T1A6C 000:835 JLINK_WriteReg(R2, 0x000000FF)  returns 0x00 (0000ms, 0666ms total)
T1A6C 000:835 JLINK_WriteReg(R3, 0x00000000)  returns 0x00 (0001ms, 0667ms total)
T1A6C 000:836 JLINK_WriteReg(R4, 0x00000000)  returns 0x00 (0000ms, 0667ms total)
T1A6C 000:836 JLINK_WriteReg(R5, 0x00000000)  returns 0x00 (0000ms, 0667ms total)
T1A6C 000:836 JLINK_WriteReg(R6, 0x00000000)  returns 0x00 (0000ms, 0667ms total)
T1A6C 000:836 JLINK_WriteReg(R7, 0x00000000)  returns 0x00 (0000ms, 0667ms total)
T1A6C 000:836 JLINK_WriteReg(R8, 0x00000000)  returns 0x00 (0000ms, 0667ms total)
T1A6C 000:836 JLINK_WriteReg(R9, 0x2000016C)  returns 0x00 (0000ms, 0667ms total)
T1A6C 000:836 JLINK_WriteReg(R10, 0x00000000)  returns 0x00 (0000ms, 0667ms total)
T1A6C 000:836 JLINK_WriteReg(R11, 0x00000000)  returns 0x00 (0000ms, 0667ms total)
T1A6C 000:836 JLINK_WriteReg(R12, 0x00000000)  returns 0x00 (0000ms, 0667ms total)
T1A6C 000:836 JLINK_WriteReg(R13 (SP), 0x20001000)  returns 0x00 (0000ms, 0667ms total)
T1A6C 000:836 JLINK_WriteReg(R14, 0x20000001)  returns 0x00 (0000ms, 0667ms total)
T1A6C 000:836 JLINK_WriteReg(R15 (PC), 0x20000020)  returns 0x00 (0000ms, 0667ms total)
T1A6C 000:836 JLINK_WriteReg(XPSR, 0x01000000)  returns 0x00 (0000ms, 0667ms total)
T1A6C 000:836 JLINK_WriteReg(MSP, 0x20001000)  returns 0x00 (0000ms, 0667ms total)
T1A6C 000:836 JLINK_WriteReg(PSP, 0x20001000)  returns 0x00 (0000ms, 0667ms total)
T1A6C 000:836 JLINK_WriteReg(CFBP, 0x00000000)  returns 0x00 (0000ms, 0667ms total)
T1A6C 000:836 JLINK_SetBPEx(Addr = 0x20000000, Type = 0xFFFFFFF2)  returns 0x00000004 (0000ms, 0667ms total)
T1A6C 000:836 JLINK_Go() (0002ms, 0669ms total)
T1A6C 000:838 JLINK_IsHalted() -- CPU_ReadMem(2 bytes @ 0x20000000)  returns TRUE (0003ms, 0672ms total)
T1A6C 000:841 JLINK_ReadReg(R15 (PC))  returns 0x20000000 (0000ms, 0669ms total)
T1A6C 000:841 JLINK_ClrBPEx(BPHandle = 0x00000004)  returns 0x00 (0000ms, 0669ms total)
T1A6C 000:841 JLINK_ReadReg(R0)  returns 0x00000001 (0000ms, 0669ms total)
T1A6C 000:841 JLINK_WriteReg(R0, 0x08000400)  returns 0x00 (0000ms, 0669ms total)
T1A6C 000:841 JLINK_WriteReg(R1, 0x00000400)  returns 0x00 (0000ms, 0669ms total)
T1A6C 000:841 JLINK_WriteReg(R2, 0x000000FF)  returns 0x00 (0000ms, 0669ms total)
T1A6C 000:841 JLINK_WriteReg(R3, 0x00000000)  returns 0x00 (0000ms, 0669ms total)
T1A6C 000:841 JLINK_WriteReg(R4, 0x00000000)  returns 0x00 (0000ms, 0669ms total)
T1A6C 000:841 JLINK_WriteReg(R5, 0x00000000)  returns 0x00 (0000ms, 0669ms total)
T1A6C 000:841 JLINK_WriteReg(R6, 0x00000000)  returns 0x00 (0000ms, 0669ms total)
T1A6C 000:841 JLINK_WriteReg(R7, 0x00000000)  returns 0x00 (0000ms, 0669ms total)
T1A6C 000:841 JLINK_WriteReg(R8, 0x00000000)  returns 0x00 (0000ms, 0669ms total)
T1A6C 000:841 JLINK_WriteReg(R9, 0x2000016C)  returns 0x00 (0000ms, 0669ms total)
T1A6C 000:841 JLINK_WriteReg(R10, 0x00000000)  returns 0x00 (0000ms, 0669ms total)
T1A6C 000:841 JLINK_WriteReg(R11, 0x00000000)  returns 0x00 (0000ms, 0669ms total)
T1A6C 000:841 JLINK_WriteReg(R12, 0x00000000)  returns 0x00 (0000ms, 0669ms total)
T1A6C 000:841 JLINK_WriteReg(R13 (SP), 0x20001000)  returns 0x00 (0000ms, 0669ms total)
T1A6C 000:841 JLINK_WriteReg(R14, 0x20000001)  returns 0x00 (0000ms, 0669ms total)
T1A6C 000:841 JLINK_WriteReg(R15 (PC), 0x200000B8)  returns 0x00 (0000ms, 0669ms total)
T1A6C 000:841 JLINK_WriteReg(XPSR, 0x01000000)  returns 0x00 (0000ms, 0669ms total)
T1A6C 000:841 JLINK_WriteReg(MSP, 0x20001000)  returns 0x00 (0000ms, 0669ms total)
T1A6C 000:841 JLINK_WriteReg(PSP, 0x20001000)  returns 0x00 (0000ms, 0669ms total)
T1A6C 000:841 JLINK_WriteReg(CFBP, 0x00000000)  returns 0x00 (0000ms, 0669ms total)
T1A6C 000:841 JLINK_SetBPEx(Addr = 0x20000000, Type = 0xFFFFFFF2)  returns 0x00000005 (0001ms, 0670ms total)
T1A6C 000:842 JLINK_Go() (0001ms, 0671ms total)
T1A6C 000:843 JLINK_IsHalted()  returns FALSE (0000ms, 0671ms total)
T1A6C 000:849 JLINK_IsHalted()  returns FALSE (0000ms, 0671ms total)
T1A6C 000:851 JLINK_IsHalted()  returns FALSE (0000ms, 0671ms total)
T1A6C 000:853 JLINK_IsHalted()  returns FALSE (0000ms, 0671ms total)
T1A6C 000:854 JLINK_IsHalted()  returns FALSE (0001ms, 0672ms total)
T1A6C 000:856 JLINK_IsHalted()  returns FALSE (0001ms, 0672ms total)
T1A6C 000:858 JLINK_IsHalted()  returns FALSE (0001ms, 0672ms total)
T1A6C 000:860 JLINK_IsHalted()  returns FALSE (0001ms, 0672ms total)
T1A6C 000:862 JLINK_IsHalted()  returns FALSE (0001ms, 0672ms total)
T1A6C 000:864 JLINK_IsHalted() -- CPU_ReadMem(2 bytes @ 0x20000000)  returns TRUE (0003ms, 0674ms total)
T1A6C 000:867 JLINK_ReadReg(R15 (PC))  returns 0x20000000 (0000ms, 0671ms total)
T1A6C 000:867 JLINK_ClrBPEx(BPHandle = 0x00000005)  returns 0x00 (0000ms, 0671ms total)
T1A6C 000:867 JLINK_ReadReg(R0)  returns 0x00000000 (0000ms, 0671ms total)
T1A6C 000:868 JLINK_WriteReg(R0, 0x08000800)  returns 0x00 (0000ms, 0671ms total)
T1A6C 000:868 JLINK_WriteReg(R1, 0x00000400)  returns 0x00 (0000ms, 0671ms total)
T1A6C 000:868 JLINK_WriteReg(R2, 0x000000FF)  returns 0x00 (0000ms, 0671ms total)
T1A6C 000:868 JLINK_WriteReg(R3, 0x00000000)  returns 0x00 (0000ms, 0671ms total)
T1A6C 000:868 JLINK_WriteReg(R4, 0x00000000)  returns 0x00 (0000ms, 0671ms total)
T1A6C 000:868 JLINK_WriteReg(R5, 0x00000000)  returns 0x00 (0000ms, 0671ms total)
T1A6C 000:868 JLINK_WriteReg(R6, 0x00000000)  returns 0x00 (0000ms, 0671ms total)
T1A6C 000:868 JLINK_WriteReg(R7, 0x00000000)  returns 0x00 (0000ms, 0671ms total)
T1A6C 000:868 JLINK_WriteReg(R8, 0x00000000)  returns 0x00 (0000ms, 0671ms total)
T1A6C 000:868 JLINK_WriteReg(R9, 0x2000016C)  returns 0x00 (0000ms, 0671ms total)
T1A6C 000:868 JLINK_WriteReg(R10, 0x00000000)  returns 0x00 (0000ms, 0671ms total)
T1A6C 000:868 JLINK_WriteReg(R11, 0x00000000)  returns 0x00 (0000ms, 0671ms total)
T1A6C 000:868 JLINK_WriteReg(R12, 0x00000000)  returns 0x00 (0000ms, 0671ms total)
T1A6C 000:868 JLINK_WriteReg(R13 (SP), 0x20001000)  returns 0x00 (0000ms, 0671ms total)
T1A6C 000:868 JLINK_WriteReg(R14, 0x20000001)  returns 0x00 (0000ms, 0671ms total)
T1A6C 000:868 JLINK_WriteReg(R15 (PC), 0x20000020)  returns 0x00 (0000ms, 0671ms total)
T1A6C 000:868 JLINK_WriteReg(XPSR, 0x01000000)  returns 0x00 (0000ms, 0671ms total)
T1A6C 000:868 JLINK_WriteReg(MSP, 0x20001000)  returns 0x00 (0000ms, 0671ms total)
T1A6C 000:868 JLINK_WriteReg(PSP, 0x20001000)  returns 0x00 (0000ms, 0671ms total)
T1A6C 000:868 JLINK_WriteReg(CFBP, 0x00000000)  returns 0x00 (0000ms, 0671ms total)
T1A6C 000:868 JLINK_SetBPEx(Addr = 0x20000000, Type = 0xFFFFFFF2)  returns 0x00000006 (0000ms, 0671ms total)
T1A6C 000:868 JLINK_Go() (0002ms, 0673ms total)
T1A6C 000:870 JLINK_IsHalted() -- CPU_ReadMem(2 bytes @ 0x20000000)  returns TRUE (0003ms, 0676ms total)
T1A6C 000:873 JLINK_ReadReg(R15 (PC))  returns 0x20000000 (0000ms, 0673ms total)
T1A6C 000:873 JLINK_ClrBPEx(BPHandle = 0x00000006)  returns 0x00 (0000ms, 0673ms total)
T1A6C 000:873 JLINK_ReadReg(R0)  returns 0x00000001 (0000ms, 0673ms total)
T1A6C 000:873 JLINK_WriteReg(R0, 0x08000800)  returns 0x00 (0000ms, 0673ms total)
T1A6C 000:873 JLINK_WriteReg(R1, 0x00000400)  returns 0x00 (0000ms, 0673ms total)
T1A6C 000:873 JLINK_WriteReg(R2, 0x000000FF)  returns 0x00 (0000ms, 0673ms total)
T1A6C 000:873 JLINK_WriteReg(R3, 0x00000000)  returns 0x00 (0000ms, 0673ms total)
T1A6C 000:873 JLINK_WriteReg(R4, 0x00000000)  returns 0x00 (0000ms, 0673ms total)
T1A6C 000:873 JLINK_WriteReg(R5, 0x00000000)  returns 0x00 (0000ms, 0673ms total)
T1A6C 000:873 JLINK_WriteReg(R6, 0x00000000)  returns 0x00 (0000ms, 0673ms total)
T1A6C 000:873 JLINK_WriteReg(R7, 0x00000000)  returns 0x00 (0000ms, 0673ms total)
T1A6C 000:873 JLINK_WriteReg(R8, 0x00000000)  returns 0x00 (0000ms, 0673ms total)
T1A6C 000:873 JLINK_WriteReg(R9, 0x2000016C)  returns 0x00 (0000ms, 0673ms total)
T1A6C 000:873 JLINK_WriteReg(R10, 0x00000000)  returns 0x00 (0000ms, 0673ms total)
T1A6C 000:873 JLINK_WriteReg(R11, 0x00000000)  returns 0x00 (0000ms, 0673ms total)
T1A6C 000:873 JLINK_WriteReg(R12, 0x00000000)  returns 0x00 (0000ms, 0673ms total)
T1A6C 000:873 JLINK_WriteReg(R13 (SP), 0x20001000)  returns 0x00 (0000ms, 0673ms total)
T1A6C 000:873 JLINK_WriteReg(R14, 0x20000001)  returns 0x00 (0000ms, 0673ms total)
T1A6C 000:873 JLINK_WriteReg(R15 (PC), 0x200000B8)  returns 0x00 (0000ms, 0673ms total)
T1A6C 000:873 JLINK_WriteReg(XPSR, 0x01000000)  returns 0x00 (0000ms, 0673ms total)
T1A6C 000:873 JLINK_WriteReg(MSP, 0x20001000)  returns 0x00 (0000ms, 0673ms total)
T1A6C 000:873 JLINK_WriteReg(PSP, 0x20001000)  returns 0x00 (0000ms, 0673ms total)
T1A6C 000:873 JLINK_WriteReg(CFBP, 0x00000000)  returns 0x00 (0000ms, 0673ms total)
T1A6C 000:873 JLINK_SetBPEx(Addr = 0x20000000, Type = 0xFFFFFFF2)  returns 0x00000007 (0000ms, 0673ms total)
T1A6C 000:873 JLINK_Go() (0002ms, 0675ms total)
T1A6C 000:875 JLINK_IsHalted()  returns FALSE (0000ms, 0675ms total)
T1A6C 000:878 JLINK_IsHalted()  returns FALSE (0001ms, 0676ms total)
T1A6C 000:880 JLINK_IsHalted()  returns FALSE (0000ms, 0675ms total)
T1A6C 000:882 JLINK_IsHalted()  returns FALSE (0000ms, 0675ms total)
T1A6C 000:885 JLINK_IsHalted()  returns FALSE (0000ms, 0675ms total)
T1A6C 000:887 JLINK_IsHalted()  returns FALSE (0000ms, 0675ms total)
T1A6C 000:889 JLINK_IsHalted()  returns FALSE (0000ms, 0675ms total)
T1A6C 000:890 JLINK_IsHalted()  returns FALSE (0001ms, 0676ms total)
T1A6C 000:892 JLINK_IsHalted()  returns FALSE (0001ms, 0676ms total)
T1A6C 000:894 JLINK_IsHalted()  returns FALSE (0001ms, 0676ms total)
T1A6C 000:896 JLINK_IsHalted() -- CPU_ReadMem(2 bytes @ 0x20000000)  returns TRUE (0003ms, 0678ms total)
T1A6C 000:899 JLINK_ReadReg(R15 (PC))  returns 0x20000000 (0000ms, 0675ms total)
T1A6C 000:899 JLINK_ClrBPEx(BPHandle = 0x00000007)  returns 0x00 (0000ms, 0675ms total)
T1A6C 000:899 JLINK_ReadReg(R0)  returns 0x00000000 (0000ms, 0675ms total)
T1A6C 000:899 JLINK_WriteReg(R0, 0x08000C00)  returns 0x00 (0001ms, 0676ms total)
T1A6C 000:900 JLINK_WriteReg(R1, 0x00000400)  returns 0x00 (0000ms, 0676ms total)
T1A6C 000:900 JLINK_WriteReg(R2, 0x000000FF)  returns 0x00 (0000ms, 0676ms total)
T1A6C 000:900 JLINK_WriteReg(R3, 0x00000000)  returns 0x00 (0000ms, 0676ms total)
T1A6C 000:900 JLINK_WriteReg(R4, 0x00000000)  returns 0x00 (0000ms, 0676ms total)
T1A6C 000:900 JLINK_WriteReg(R5, 0x00000000)  returns 0x00 (0000ms, 0676ms total)
T1A6C 000:900 JLINK_WriteReg(R6, 0x00000000)  returns 0x00 (0000ms, 0676ms total)
T1A6C 000:900 JLINK_WriteReg(R7, 0x00000000)  returns 0x00 (0000ms, 0676ms total)
T1A6C 000:900 JLINK_WriteReg(R8, 0x00000000)  returns 0x00 (0000ms, 0676ms total)
T1A6C 000:900 JLINK_WriteReg(R9, 0x2000016C)  returns 0x00 (0000ms, 0676ms total)
T1A6C 000:900 JLINK_WriteReg(R10, 0x00000000)  returns 0x00 (0000ms, 0676ms total)
T1A6C 000:900 JLINK_WriteReg(R11, 0x00000000)  returns 0x00 (0000ms, 0676ms total)
T1A6C 000:900 JLINK_WriteReg(R12, 0x00000000)  returns 0x00 (0000ms, 0676ms total)
T1A6C 000:900 JLINK_WriteReg(R13 (SP), 0x20001000)  returns 0x00 (0000ms, 0676ms total)
T1A6C 000:900 JLINK_WriteReg(R14, 0x20000001)  returns 0x00 (0000ms, 0676ms total)
T1A6C 000:900 JLINK_WriteReg(R15 (PC), 0x20000020)  returns 0x00 (0000ms, 0676ms total)
T1A6C 000:900 JLINK_WriteReg(XPSR, 0x01000000)  returns 0x00 (0000ms, 0676ms total)
T1A6C 000:900 JLINK_WriteReg(MSP, 0x20001000)  returns 0x00 (0000ms, 0676ms total)
T1A6C 000:900 JLINK_WriteReg(PSP, 0x20001000)  returns 0x00 (0000ms, 0676ms total)
T1A6C 000:900 JLINK_WriteReg(CFBP, 0x00000000)  returns 0x00 (0000ms, 0676ms total)
T1A6C 000:900 JLINK_SetBPEx(Addr = 0x20000000, Type = 0xFFFFFFF2)  returns 0x00000008 (0000ms, 0676ms total)
T1A6C 000:900 JLINK_Go() (0001ms, 0677ms total)
T1A6C 000:902 JLINK_IsHalted() -- CPU_ReadMem(2 bytes @ 0x20000000)  returns TRUE (0002ms, 0680ms total)
T1A6C 000:904 JLINK_ReadReg(R15 (PC))  returns 0x20000000 (0000ms, 0678ms total)
T1A6C 000:904 JLINK_ClrBPEx(BPHandle = 0x00000008)  returns 0x00 (0000ms, 0678ms total)
T1A6C 000:904 JLINK_ReadReg(R0)  returns 0x00000001 (0000ms, 0678ms total)
T1A6C 000:904 JLINK_WriteReg(R0, 0x08000C00)  returns 0x00 (0000ms, 0678ms total)
T1A6C 000:904 JLINK_WriteReg(R1, 0x00000400)  returns 0x00 (0000ms, 0678ms total)
T1A6C 000:904 JLINK_WriteReg(R2, 0x000000FF)  returns 0x00 (0000ms, 0678ms total)
T1A6C 000:904 JLINK_WriteReg(R3, 0x00000000)  returns 0x00 (0000ms, 0678ms total)
T1A6C 000:904 JLINK_WriteReg(R4, 0x00000000)  returns 0x00 (0000ms, 0678ms total)
T1A6C 000:904 JLINK_WriteReg(R5, 0x00000000)  returns 0x00 (0000ms, 0678ms total)
T1A6C 000:904 JLINK_WriteReg(R6, 0x00000000)  returns 0x00 (0000ms, 0678ms total)
T1A6C 000:904 JLINK_WriteReg(R7, 0x00000000)  returns 0x00 (0000ms, 0678ms total)
T1A6C 000:904 JLINK_WriteReg(R8, 0x00000000)  returns 0x00 (0000ms, 0678ms total)
T1A6C 000:904 JLINK_WriteReg(R9, 0x2000016C)  returns 0x00 (0000ms, 0678ms total)
T1A6C 000:904 JLINK_WriteReg(R10, 0x00000000)  returns 0x00 (0000ms, 0678ms total)
T1A6C 000:904 JLINK_WriteReg(R11, 0x00000000)  returns 0x00 (0001ms, 0679ms total)
T1A6C 000:905 JLINK_WriteReg(R12, 0x00000000)  returns 0x00 (0000ms, 0679ms total)
T1A6C 000:905 JLINK_WriteReg(R13 (SP), 0x20001000)  returns 0x00 (0000ms, 0679ms total)
T1A6C 000:905 JLINK_WriteReg(R14, 0x20000001)  returns 0x00 (0000ms, 0679ms total)
T1A6C 000:905 JLINK_WriteReg(R15 (PC), 0x200000B8)  returns 0x00 (0000ms, 0679ms total)
T1A6C 000:905 JLINK_WriteReg(XPSR, 0x01000000)  returns 0x00 (0000ms, 0679ms total)
T1A6C 000:905 JLINK_WriteReg(MSP, 0x20001000)  returns 0x00 (0000ms, 0679ms total)
T1A6C 000:905 JLINK_WriteReg(PSP, 0x20001000)  returns 0x00 (0000ms, 0679ms total)
T1A6C 000:905 JLINK_WriteReg(CFBP, 0x00000000)  returns 0x00 (0000ms, 0679ms total)
T1A6C 000:905 JLINK_SetBPEx(Addr = 0x20000000, Type = 0xFFFFFFF2)  returns 0x00000009 (0000ms, 0679ms total)
T1A6C 000:905 JLINK_Go() (0001ms, 0680ms total)
T1A6C 000:906 JLINK_IsHalted()  returns FALSE (0001ms, 0681ms total)
T1A6C 000:908 JLINK_IsHalted()  returns FALSE (0001ms, 0681ms total)
T1A6C 000:910 JLINK_IsHalted()  returns FALSE (0001ms, 0681ms total)
T1A6C 000:912 JLINK_IsHalted()  returns FALSE (0001ms, 0681ms total)
T1A6C 000:914 JLINK_IsHalted()  returns FALSE (0001ms, 0681ms total)
T1A6C 000:916 JLINK_IsHalted()  returns FALSE (0001ms, 0681ms total)
T1A6C 000:918 JLINK_IsHalted()  returns FALSE (0001ms, 0681ms total)
T1A6C 000:921 JLINK_IsHalted()  returns FALSE (0000ms, 0680ms total)
T1A6C 000:923 JLINK_IsHalted()  returns FALSE (0000ms, 0680ms total)
T1A6C 000:925 JLINK_IsHalted()  returns FALSE (0000ms, 0680ms total)
T1A6C 000:927 JLINK_IsHalted()  returns FALSE (0000ms, 0680ms total)
T1A6C 000:929 JLINK_IsHalted() -- CPU_ReadMem(2 bytes @ 0x20000000)  returns TRUE (0002ms, 0682ms total)
T1A6C 000:931 JLINK_ReadReg(R15 (PC))  returns 0x20000000 (0000ms, 0680ms total)
T1A6C 000:931 JLINK_ClrBPEx(BPHandle = 0x00000009)  returns 0x00 (0000ms, 0680ms total)
T1A6C 000:931 JLINK_ReadReg(R0)  returns 0x00000000 (0000ms, 0680ms total)
T1A6C 000:932 JLINK_WriteReg(R0, 0x08001000)  returns 0x00 (0000ms, 0680ms total)
T1A6C 000:932 JLINK_WriteReg(R1, 0x00000400)  returns 0x00 (0000ms, 0680ms total)
T1A6C 000:932 JLINK_WriteReg(R2, 0x000000FF)  returns 0x00 (0000ms, 0680ms total)
T1A6C 000:932 JLINK_WriteReg(R3, 0x00000000)  returns 0x00 (0000ms, 0680ms total)
T1A6C 000:932 JLINK_WriteReg(R4, 0x00000000)  returns 0x00 (0000ms, 0680ms total)
T1A6C 000:932 JLINK_WriteReg(R5, 0x00000000)  returns 0x00 (0000ms, 0680ms total)
T1A6C 000:932 JLINK_WriteReg(R6, 0x00000000)  returns 0x00 (0000ms, 0680ms total)
T1A6C 000:932 JLINK_WriteReg(R7, 0x00000000)  returns 0x00 (0000ms, 0680ms total)
T1A6C 000:932 JLINK_WriteReg(R8, 0x00000000)  returns 0x00 (0000ms, 0680ms total)
T1A6C 000:932 JLINK_WriteReg(R9, 0x2000016C)  returns 0x00 (0000ms, 0680ms total)
T1A6C 000:932 JLINK_WriteReg(R10, 0x00000000)  returns 0x00 (0000ms, 0680ms total)
T1A6C 000:932 JLINK_WriteReg(R11, 0x00000000)  returns 0x00 (0000ms, 0680ms total)
T1A6C 000:932 JLINK_WriteReg(R12, 0x00000000)  returns 0x00 (0000ms, 0680ms total)
T1A6C 000:932 JLINK_WriteReg(R13 (SP), 0x20001000)  returns 0x00 (0000ms, 0680ms total)
T1A6C 000:932 JLINK_WriteReg(R14, 0x20000001)  returns 0x00 (0000ms, 0680ms total)
T1A6C 000:932 JLINK_WriteReg(R15 (PC), 0x20000020)  returns 0x00 (0000ms, 0680ms total)
T1A6C 000:932 JLINK_WriteReg(XPSR, 0x01000000)  returns 0x00 (0000ms, 0680ms total)
T1A6C 000:932 JLINK_WriteReg(MSP, 0x20001000)  returns 0x00 (0000ms, 0680ms total)
T1A6C 000:932 JLINK_WriteReg(PSP, 0x20001000)  returns 0x00 (0000ms, 0680ms total)
T1A6C 000:932 JLINK_WriteReg(CFBP, 0x00000000)  returns 0x00 (0000ms, 0680ms total)
T1A6C 000:932 JLINK_SetBPEx(Addr = 0x20000000, Type = 0xFFFFFFF2)  returns 0x0000000A (0001ms, 0681ms total)
T1A6C 000:933 JLINK_Go() (0001ms, 0682ms total)
T1A6C 000:934 JLINK_IsHalted() -- CPU_ReadMem(2 bytes @ 0x20000000)  returns TRUE (0003ms, 0685ms total)
T1A6C 000:937 JLINK_ReadReg(R15 (PC))  returns 0x20000000 (0000ms, 0682ms total)
T1A6C 000:937 JLINK_ClrBPEx(BPHandle = 0x0000000A)  returns 0x00 (0000ms, 0682ms total)
T1A6C 000:937 JLINK_ReadReg(R0)  returns 0x00000001 (0000ms, 0682ms total)
T1A6C 000:937 JLINK_WriteReg(R0, 0x08001000)  returns 0x00 (0000ms, 0682ms total)
T1A6C 000:937 JLINK_WriteReg(R1, 0x00000400)  returns 0x00 (0000ms, 0682ms total)
T1A6C 000:937 JLINK_WriteReg(R2, 0x000000FF)  returns 0x00 (0000ms, 0682ms total)
T1A6C 000:937 JLINK_WriteReg(R3, 0x00000000)  returns 0x00 (0000ms, 0682ms total)
T1A6C 000:937 JLINK_WriteReg(R4, 0x00000000)  returns 0x00 (0000ms, 0682ms total)
T1A6C 000:937 JLINK_WriteReg(R5, 0x00000000)  returns 0x00 (0000ms, 0682ms total)
T1A6C 000:937 JLINK_WriteReg(R6, 0x00000000)  returns 0x00 (0000ms, 0682ms total)
T1A6C 000:937 JLINK_WriteReg(R7, 0x00000000)  returns 0x00 (0000ms, 0682ms total)
T1A6C 000:937 JLINK_WriteReg(R8, 0x00000000)  returns 0x00 (0000ms, 0682ms total)
T1A6C 000:937 JLINK_WriteReg(R9, 0x2000016C)  returns 0x00 (0000ms, 0682ms total)
T1A6C 000:937 JLINK_WriteReg(R10, 0x00000000)  returns 0x00 (0000ms, 0682ms total)
T1A6C 000:937 JLINK_WriteReg(R11, 0x00000000)  returns 0x00 (0000ms, 0682ms total)
T1A6C 000:937 JLINK_WriteReg(R12, 0x00000000)  returns 0x00 (0000ms, 0682ms total)
T1A6C 000:937 JLINK_WriteReg(R13 (SP), 0x20001000)  returns 0x00 (0000ms, 0682ms total)
T1A6C 000:937 JLINK_WriteReg(R14, 0x20000001)  returns 0x00 (0000ms, 0682ms total)
T1A6C 000:937 JLINK_WriteReg(R15 (PC), 0x200000B8)  returns 0x00 (0000ms, 0682ms total)
T1A6C 000:937 JLINK_WriteReg(XPSR, 0x01000000)  returns 0x00 (0001ms, 0683ms total)
T1A6C 000:938 JLINK_WriteReg(MSP, 0x20001000)  returns 0x00 (0000ms, 0683ms total)
T1A6C 000:938 JLINK_WriteReg(PSP, 0x20001000)  returns 0x00 (0000ms, 0683ms total)
T1A6C 000:938 JLINK_WriteReg(CFBP, 0x00000000)  returns 0x00 (0000ms, 0683ms total)
T1A6C 000:938 JLINK_SetBPEx(Addr = 0x20000000, Type = 0xFFFFFFF2)  returns 0x0000000B (0000ms, 0683ms total)
T1A6C 000:938 JLINK_Go() (0000ms, 0683ms total)
T1A6C 000:938 JLINK_IsHalted()  returns FALSE (0001ms, 0684ms total)
T1A6C 000:941 JLINK_IsHalted()  returns FALSE (0000ms, 0683ms total)
T1A6C 000:942 JLINK_IsHalted()  returns FALSE (0000ms, 0683ms total)
T1A6C 000:944 JLINK_IsHalted()  returns FALSE (0000ms, 0683ms total)
T1A6C 000:954 JLINK_IsHalted()  returns FALSE (0000ms, 0683ms total)
T1A6C 000:956 JLINK_IsHalted()  returns FALSE (0000ms, 0683ms total)
T1A6C 000:958 JLINK_IsHalted()  returns FALSE (0000ms, 0683ms total)
T1A6C 000:959 JLINK_IsHalted()  returns FALSE (0001ms, 0684ms total)
T1A6C 000:961 JLINK_IsHalted() -- CPU_ReadMem(2 bytes @ 0x20000000)  returns TRUE (0003ms, 0686ms total)
T1A6C 000:964 JLINK_ReadReg(R15 (PC))  returns 0x20000000 (0000ms, 0683ms total)
T1A6C 000:964 JLINK_ClrBPEx(BPHandle = 0x0000000B)  returns 0x00 (0000ms, 0683ms total)
T1A6C 000:964 JLINK_ReadReg(R0)  returns 0x00000000 (0000ms, 0683ms total)
T1A6C 000:965 JLINK_WriteReg(R0, 0x08001400)  returns 0x00 (0000ms, 0683ms total)
T1A6C 000:965 JLINK_WriteReg(R1, 0x00000400)  returns 0x00 (0000ms, 0683ms total)
T1A6C 000:965 JLINK_WriteReg(R2, 0x000000FF)  returns 0x00 (0000ms, 0683ms total)
T1A6C 000:965 JLINK_WriteReg(R3, 0x00000000)  returns 0x00 (0000ms, 0683ms total)
T1A6C 000:965 JLINK_WriteReg(R4, 0x00000000)  returns 0x00 (0000ms, 0683ms total)
T1A6C 000:965 JLINK_WriteReg(R5, 0x00000000)  returns 0x00 (0000ms, 0683ms total)
T1A6C 000:965 JLINK_WriteReg(R6, 0x00000000)  returns 0x00 (0000ms, 0683ms total)
T1A6C 000:965 JLINK_WriteReg(R7, 0x00000000)  returns 0x00 (0000ms, 0683ms total)
T1A6C 000:965 JLINK_WriteReg(R8, 0x00000000)  returns 0x00 (0000ms, 0683ms total)
T1A6C 000:965 JLINK_WriteReg(R9, 0x2000016C)  returns 0x00 (0000ms, 0683ms total)
T1A6C 000:965 JLINK_WriteReg(R10, 0x00000000)  returns 0x00 (0000ms, 0683ms total)
T1A6C 000:965 JLINK_WriteReg(R11, 0x00000000)  returns 0x00 (0000ms, 0683ms total)
T1A6C 000:965 JLINK_WriteReg(R12, 0x00000000)  returns 0x00 (0000ms, 0683ms total)
T1A6C 000:965 JLINK_WriteReg(R13 (SP), 0x20001000)  returns 0x00 (0000ms, 0683ms total)
T1A6C 000:965 JLINK_WriteReg(R14, 0x20000001)  returns 0x00 (0000ms, 0683ms total)
T1A6C 000:965 JLINK_WriteReg(R15 (PC), 0x20000020)  returns 0x00 (0000ms, 0683ms total)
T1A6C 000:965 JLINK_WriteReg(XPSR, 0x01000000)  returns 0x00 (0000ms, 0683ms total)
T1A6C 000:965 JLINK_WriteReg(MSP, 0x20001000)  returns 0x00 (0000ms, 0683ms total)
T1A6C 000:965 JLINK_WriteReg(PSP, 0x20001000)  returns 0x00 (0000ms, 0683ms total)
T1A6C 000:965 JLINK_WriteReg(CFBP, 0x00000000)  returns 0x00 (0000ms, 0683ms total)
T1A6C 000:965 JLINK_SetBPEx(Addr = 0x20000000, Type = 0xFFFFFFF2)  returns 0x0000000C (0000ms, 0683ms total)
T1A6C 000:965 JLINK_Go() (0002ms, 0685ms total)
T1A6C 000:967 JLINK_IsHalted() -- CPU_ReadMem(2 bytes @ 0x20000000)  returns TRUE (0003ms, 0688ms total)
T1A6C 000:970 JLINK_ReadReg(R15 (PC))  returns 0x20000000 (0000ms, 0685ms total)
T1A6C 000:970 JLINK_ClrBPEx(BPHandle = 0x0000000C)  returns 0x00 (0000ms, 0685ms total)
T1A6C 000:970 JLINK_ReadReg(R0)  returns 0x00000001 (0000ms, 0685ms total)
T1A6C 000:970 JLINK_WriteReg(R0, 0x08001400)  returns 0x00 (0000ms, 0685ms total)
T1A6C 000:970 JLINK_WriteReg(R1, 0x00000400)  returns 0x00 (0000ms, 0685ms total)
T1A6C 000:970 JLINK_WriteReg(R2, 0x000000FF)  returns 0x00 (0000ms, 0685ms total)
T1A6C 000:970 JLINK_WriteReg(R3, 0x00000000)  returns 0x00 (0000ms, 0685ms total)
T1A6C 000:970 JLINK_WriteReg(R4, 0x00000000)  returns 0x00 (0000ms, 0685ms total)
T1A6C 000:970 JLINK_WriteReg(R5, 0x00000000)  returns 0x00 (0000ms, 0685ms total)
T1A6C 000:970 JLINK_WriteReg(R6, 0x00000000)  returns 0x00 (0000ms, 0685ms total)
T1A6C 000:970 JLINK_WriteReg(R7, 0x00000000)  returns 0x00 (0000ms, 0685ms total)
T1A6C 000:970 JLINK_WriteReg(R8, 0x00000000)  returns 0x00 (0000ms, 0685ms total)
T1A6C 000:970 JLINK_WriteReg(R9, 0x2000016C)  returns 0x00 (0000ms, 0685ms total)
T1A6C 000:970 JLINK_WriteReg(R10, 0x00000000)  returns 0x00 (0000ms, 0685ms total)
T1A6C 000:970 JLINK_WriteReg(R11, 0x00000000)  returns 0x00 (0000ms, 0685ms total)
T1A6C 000:970 JLINK_WriteReg(R12, 0x00000000)  returns 0x00 (0000ms, 0685ms total)
T1A6C 000:970 JLINK_WriteReg(R13 (SP), 0x20001000)  returns 0x00 (0000ms, 0685ms total)
T1A6C 000:970 JLINK_WriteReg(R14, 0x20000001)  returns 0x00 (0000ms, 0685ms total)
T1A6C 000:970 JLINK_WriteReg(R15 (PC), 0x200000B8)  returns 0x00 (0000ms, 0685ms total)
T1A6C 000:970 JLINK_WriteReg(XPSR, 0x01000000)  returns 0x00 (0000ms, 0685ms total)
T1A6C 000:970 JLINK_WriteReg(MSP, 0x20001000)  returns 0x00 (0000ms, 0685ms total)
T1A6C 000:970 JLINK_WriteReg(PSP, 0x20001000)  returns 0x00 (0000ms, 0685ms total)
T1A6C 000:970 JLINK_WriteReg(CFBP, 0x00000000)  returns 0x00 (0000ms, 0685ms total)
T1A6C 000:970 JLINK_SetBPEx(Addr = 0x20000000, Type = 0xFFFFFFF2)  returns 0x0000000D (0000ms, 0685ms total)
T1A6C 000:970 JLINK_Go() (0002ms, 0687ms total)
T1A6C 000:972 JLINK_IsHalted()  returns FALSE (0000ms, 0687ms total)
T1A6C 000:977 JLINK_IsHalted()  returns FALSE (0001ms, 0688ms total)
T1A6C 000:980 JLINK_IsHalted()  returns FALSE (0000ms, 0687ms total)
T1A6C 000:981 JLINK_IsHalted()  returns FALSE (0001ms, 0688ms total)
T1A6C 000:983 JLINK_IsHalted()  returns FALSE (0000ms, 0687ms total)
T1A6C 000:985 JLINK_IsHalted()  returns FALSE (0000ms, 0687ms total)
T1A6C 000:987 JLINK_IsHalted()  returns FALSE (0000ms, 0687ms total)
T1A6C 000:989 JLINK_IsHalted()  returns FALSE (0000ms, 0687ms total)
T1A6C 000:991 JLINK_IsHalted()  returns FALSE (0000ms, 0687ms total)
T1A6C 000:992 JLINK_IsHalted()  returns FALSE (0001ms, 0688ms total)
T1A6C 000:994 JLINK_IsHalted() -- CPU_ReadMem(2 bytes @ 0x20000000)  returns TRUE (0003ms, 0690ms total)
T1A6C 000:997 JLINK_ReadReg(R15 (PC))  returns 0x20000000 (0000ms, 0687ms total)
T1A6C 000:997 JLINK_ClrBPEx(BPHandle = 0x0000000D)  returns 0x00 (0000ms, 0687ms total)
T1A6C 000:997 JLINK_ReadReg(R0)  returns 0x00000000 (0000ms, 0687ms total)
T1A6C 000:998 JLINK_WriteReg(R0, 0x00000001)  returns 0x00 (0000ms, 0687ms total)
T1A6C 000:998 JLINK_WriteReg(R1, 0x00000400)  returns 0x00 (0000ms, 0687ms total)
T1A6C 000:998 JLINK_WriteReg(R2, 0x000000FF)  returns 0x00 (0000ms, 0687ms total)
T1A6C 000:998 JLINK_WriteReg(R3, 0x00000000)  returns 0x00 (0000ms, 0687ms total)
T1A6C 000:998 JLINK_WriteReg(R4, 0x00000000)  returns 0x00 (0000ms, 0687ms total)
T1A6C 000:998 JLINK_WriteReg(R5, 0x00000000)  returns 0x00 (0000ms, 0687ms total)
T1A6C 000:998 JLINK_WriteReg(R6, 0x00000000)  returns 0x00 (0000ms, 0687ms total)
T1A6C 000:998 JLINK_WriteReg(R7, 0x00000000)  returns 0x00 (0000ms, 0687ms total)
T1A6C 000:998 JLINK_WriteReg(R8, 0x00000000)  returns 0x00 (0000ms, 0687ms total)
T1A6C 000:998 JLINK_WriteReg(R9, 0x2000016C)  returns 0x00 (0000ms, 0687ms total)
T1A6C 000:998 JLINK_WriteReg(R10, 0x00000000)  returns 0x00 (0000ms, 0687ms total)
T1A6C 000:998 JLINK_WriteReg(R11, 0x00000000)  returns 0x00 (0000ms, 0687ms total)
T1A6C 000:998 JLINK_WriteReg(R12, 0x00000000)  returns 0x00 (0000ms, 0687ms total)
T1A6C 000:998 JLINK_WriteReg(R13 (SP), 0x20001000)  returns 0x00 (0000ms, 0687ms total)
T1A6C 000:998 JLINK_WriteReg(R14, 0x20000001)  returns 0x00 (0000ms, 0687ms total)
T1A6C 000:998 JLINK_WriteReg(R15 (PC), 0x20000066)  returns 0x00 (0000ms, 0687ms total)
T1A6C 000:998 JLINK_WriteReg(XPSR, 0x01000000)  returns 0x00 (0000ms, 0687ms total)
T1A6C 000:998 JLINK_WriteReg(MSP, 0x20001000)  returns 0x00 (0000ms, 0687ms total)
T1A6C 000:998 JLINK_WriteReg(PSP, 0x20001000)  returns 0x00 (0000ms, 0687ms total)
T1A6C 000:998 JLINK_WriteReg(CFBP, 0x00000000)  returns 0x00 (0000ms, 0687ms total)
T1A6C 000:998 JLINK_SetBPEx(Addr = 0x20000000, Type = 0xFFFFFFF2)  returns 0x0000000E (0000ms, 0687ms total)
T1A6C 000:998 JLINK_Go() (0002ms, 0689ms total)
T1A6C 001:000 JLINK_IsHalted() -- CPU_ReadMem(2 bytes @ 0x20000000)  returns TRUE (0003ms, 0692ms total)
T1A6C 001:003 JLINK_ReadReg(R15 (PC))  returns 0x20000000 (0000ms, 0689ms total)
T1A6C 001:003 JLINK_ClrBPEx(BPHandle = 0x0000000E)  returns 0x00 (0000ms, 0689ms total)
T1A6C 001:003 JLINK_ReadReg(R0)  returns 0x00000000 (0000ms, 0689ms total)
T1A6C 001:061 JLINK_WriteMem(0x20000000, 0x0170 Bytes, ...) - Data: 00 BE 0A E0 0D 78 2D 06 68 40 08 24 40 00 00 D3 ... -- CPU_WriteMem(368 bytes @ 0x20000000)  returns 0x170 (0003ms, 0692ms total)
T1A6C 001:064 JLINK_WriteReg(R0, 0x08000000)  returns 0x00 (0000ms, 0692ms total)
T1A6C 001:064 JLINK_WriteReg(R1, 0x00B71B00)  returns 0x00 (0000ms, 0692ms total)
T1A6C 001:064 JLINK_WriteReg(R2, 0x00000002)  returns 0x00 (0000ms, 0692ms total)
T1A6C 001:064 JLINK_WriteReg(R3, 0x00000000)  returns 0x00 (0000ms, 0692ms total)
T1A6C 001:064 JLINK_WriteReg(R4, 0x00000000)  returns 0x00 (0000ms, 0692ms total)
T1A6C 001:064 JLINK_WriteReg(R5, 0x00000000)  returns 0x00 (0000ms, 0692ms total)
T1A6C 001:064 JLINK_WriteReg(R6, 0x00000000)  returns 0x00 (0000ms, 0692ms total)
T1A6C 001:064 JLINK_WriteReg(R7, 0x00000000)  returns 0x00 (0000ms, 0692ms total)
T1A6C 001:064 JLINK_WriteReg(R8, 0x00000000)  returns 0x00 (0000ms, 0692ms total)
T1A6C 001:064 JLINK_WriteReg(R9, 0x2000016C)  returns 0x00 (0001ms, 0693ms total)
T1A6C 001:065 JLINK_WriteReg(R10, 0x00000000)  returns 0x00 (0000ms, 0693ms total)
T1A6C 001:065 JLINK_WriteReg(R11, 0x00000000)  returns 0x00 (0000ms, 0693ms total)
T1A6C 001:065 JLINK_WriteReg(R12, 0x00000000)  returns 0x00 (0000ms, 0693ms total)
T1A6C 001:065 JLINK_WriteReg(R13 (SP), 0x20001000)  returns 0x00 (0000ms, 0693ms total)
T1A6C 001:065 JLINK_WriteReg(R14, 0x20000001)  returns 0x00 (0000ms, 0693ms total)
T1A6C 001:065 JLINK_WriteReg(R15 (PC), 0x20000038)  returns 0x00 (0000ms, 0693ms total)
T1A6C 001:065 JLINK_WriteReg(XPSR, 0x01000000)  returns 0x00 (0000ms, 0693ms total)
T1A6C 001:065 JLINK_WriteReg(MSP, 0x20001000)  returns 0x00 (0000ms, 0693ms total)
T1A6C 001:065 JLINK_WriteReg(PSP, 0x20001000)  returns 0x00 (0000ms, 0693ms total)
T1A6C 001:065 JLINK_WriteReg(CFBP, 0x00000000)  returns 0x00 (0000ms, 0693ms total)
T1A6C 001:065 JLINK_SetBPEx(Addr = 0x20000000, Type = 0xFFFFFFF2) -- CPU_ReadMem(2 bytes @ 0x20000000)  returns 0x0000000F (0000ms, 0693ms total)
T1A6C 001:065 JLINK_Go() -- CPU_WriteMem(2 bytes @ 0x20000000) (0002ms, 0695ms total)
T1A6C 001:067 JLINK_IsHalted() -- CPU_ReadMem(2 bytes @ 0x20000000)  returns TRUE (0003ms, 0698ms total)
T1A6C 001:070 JLINK_ReadReg(R15 (PC))  returns 0x20000000 (0000ms, 0695ms total)
T1A6C 001:070 JLINK_ClrBPEx(BPHandle = 0x0000000F)  returns 0x00 (0000ms, 0695ms total)
T1A6C 001:070 JLINK_ReadReg(R0)  returns 0x00000000 (0000ms, 0695ms total)
T1A6C 001:071 JLINK_WriteMem(0x20000170, 0x0290 Bytes, ...) - Data: 88 07 00 20 59 01 00 08 7F 01 00 08 81 01 00 08 ... -- CPU_WriteMem(656 bytes @ 0x20000170)  returns 0x290 (0004ms, 0699ms total)
T1A6C 001:075 JLINK_WriteMem(0x20000400, 0x0170 Bytes, ...) - Data: 08 D3 89 01 92 11 8B 42 04 D3 89 01 3A D0 92 11 ... -- CPU_WriteMem(368 bytes @ 0x20000400)  returns 0x170 (0003ms, 0702ms total)
T1A6C 001:078 JLINK_WriteReg(R0, 0x08000000)  returns 0x00 (0000ms, 0702ms total)
T1A6C 001:078 JLINK_WriteReg(R1, 0x00000400)  returns 0x00 (0000ms, 0702ms total)
T1A6C 001:078 JLINK_WriteReg(R2, 0x20000170)  returns 0x00 (0000ms, 0702ms total)
T1A6C 001:078 JLINK_WriteReg(R3, 0x00000000)  returns 0x00 (0000ms, 0702ms total)
T1A6C 001:078 JLINK_WriteReg(R4, 0x00000000)  returns 0x00 (0000ms, 0702ms total)
T1A6C 001:078 JLINK_WriteReg(R5, 0x00000000)  returns 0x00 (0000ms, 0702ms total)
T1A6C 001:078 JLINK_WriteReg(R6, 0x00000000)  returns 0x00 (0000ms, 0702ms total)
T1A6C 001:078 JLINK_WriteReg(R7, 0x00000000)  returns 0x00 (0000ms, 0702ms total)
T1A6C 001:079 JLINK_WriteReg(R8, 0x00000000)  returns 0x00 (0000ms, 0702ms total)
T1A6C 001:079 JLINK_WriteReg(R9, 0x2000016C)  returns 0x00 (0000ms, 0702ms total)
T1A6C 001:079 JLINK_WriteReg(R10, 0x00000000)  returns 0x00 (0000ms, 0702ms total)
T1A6C 001:079 JLINK_WriteReg(R11, 0x00000000)  returns 0x00 (0000ms, 0702ms total)
T1A6C 001:079 JLINK_WriteReg(R12, 0x00000000)  returns 0x00 (0000ms, 0702ms total)
T1A6C 001:079 JLINK_WriteReg(R13 (SP), 0x20001000)  returns 0x00 (0000ms, 0702ms total)
T1A6C 001:079 JLINK_WriteReg(R14, 0x20000001)  returns 0x00 (0000ms, 0702ms total)
T1A6C 001:079 JLINK_WriteReg(R15 (PC), 0x200000FA)  returns 0x00 (0000ms, 0702ms total)
T1A6C 001:079 JLINK_WriteReg(XPSR, 0x01000000)  returns 0x00 (0000ms, 0702ms total)
T1A6C 001:079 JLINK_WriteReg(MSP, 0x20001000)  returns 0x00 (0000ms, 0702ms total)
T1A6C 001:079 JLINK_WriteReg(PSP, 0x20001000)  returns 0x00 (0000ms, 0702ms total)
T1A6C 001:079 JLINK_WriteReg(CFBP, 0x00000000)  returns 0x00 (0000ms, 0702ms total)
T1A6C 001:079 JLINK_SetBPEx(Addr = 0x20000000, Type = 0xFFFFFFF2)  returns 0x00000010 (0000ms, 0702ms total)
T1A6C 001:079 JLINK_Go() (0001ms, 0703ms total)
T1A6C 001:080 JLINK_IsHalted()  returns FALSE (0001ms, 0704ms total)
T1A6C 001:090 JLINK_IsHalted()  returns FALSE (0000ms, 0703ms total)
T1A6C 001:092 JLINK_IsHalted()  returns FALSE (0000ms, 0703ms total)
T1A6C 001:094 JLINK_IsHalted()  returns FALSE (0000ms, 0703ms total)
T1A6C 001:096 JLINK_IsHalted()  returns FALSE (0000ms, 0703ms total)
T1A6C 001:098 JLINK_IsHalted()  returns FALSE (0000ms, 0703ms total)
T1A6C 001:100 JLINK_IsHalted()  returns FALSE (0000ms, 0703ms total)
T1A6C 001:102 JLINK_IsHalted()  returns FALSE (0000ms, 0703ms total)
T1A6C 001:104 JLINK_IsHalted()  returns FALSE (0000ms, 0703ms total)
T1A6C 001:106 JLINK_IsHalted()  returns FALSE (0000ms, 0703ms total)
T1A6C 001:108 JLINK_IsHalted()  returns FALSE (0000ms, 0703ms total)
T1A6C 001:110 JLINK_IsHalted() -- CPU_ReadMem(2 bytes @ 0x20000000)  returns TRUE (0003ms, 0706ms total)
T1A6C 001:113 JLINK_ReadReg(R15 (PC))  returns 0x20000000 (0000ms, 0703ms total)
T1A6C 001:113 JLINK_ClrBPEx(BPHandle = 0x00000010)  returns 0x00 (0000ms, 0703ms total)
T1A6C 001:113 JLINK_ReadReg(R0)  returns 0x00000000 (0000ms, 0703ms total)
T1A6C 001:113 JLINK_WriteMem(0x20000170, 0x0290 Bytes, ...) - Data: 01 28 32 D1 08 78 80 00 24 4A 10 58 00 68 28 22 ... -- CPU_WriteMem(656 bytes @ 0x20000170)  returns 0x290 (0005ms, 0708ms total)
T1A6C 001:118 JLINK_WriteMem(0x20000400, 0x0170 Bytes, ...) - Data: 20 21 00 98 08 40 00 28 02 D0 20 46 00 F0 0C FA ... -- CPU_WriteMem(368 bytes @ 0x20000400)  returns 0x170 (0002ms, 0710ms total)
T1A6C 001:120 JLINK_WriteReg(R0, 0x08000400)  returns 0x00 (0000ms, 0710ms total)
T1A6C 001:120 JLINK_WriteReg(R1, 0x00000400)  returns 0x00 (0000ms, 0710ms total)
T1A6C 001:120 JLINK_WriteReg(R2, 0x20000170)  returns 0x00 (0001ms, 0711ms total)
T1A6C 001:121 JLINK_WriteReg(R3, 0x00000000)  returns 0x00 (0000ms, 0711ms total)
T1A6C 001:121 JLINK_WriteReg(R4, 0x00000000)  returns 0x00 (0000ms, 0711ms total)
T1A6C 001:121 JLINK_WriteReg(R5, 0x00000000)  returns 0x00 (0000ms, 0711ms total)
T1A6C 001:121 JLINK_WriteReg(R6, 0x00000000)  returns 0x00 (0000ms, 0711ms total)
T1A6C 001:121 JLINK_WriteReg(R7, 0x00000000)  returns 0x00 (0000ms, 0711ms total)
T1A6C 001:121 JLINK_WriteReg(R8, 0x00000000)  returns 0x00 (0000ms, 0711ms total)
T1A6C 001:121 JLINK_WriteReg(R9, 0x2000016C)  returns 0x00 (0000ms, 0711ms total)
T1A6C 001:121 JLINK_WriteReg(R10, 0x00000000)  returns 0x00 (0000ms, 0711ms total)
T1A6C 001:121 JLINK_WriteReg(R11, 0x00000000)  returns 0x00 (0000ms, 0711ms total)
T1A6C 001:121 JLINK_WriteReg(R12, 0x00000000)  returns 0x00 (0000ms, 0711ms total)
T1A6C 001:121 JLINK_WriteReg(R13 (SP), 0x20001000)  returns 0x00 (0000ms, 0711ms total)
T1A6C 001:121 JLINK_WriteReg(R14, 0x20000001)  returns 0x00 (0000ms, 0711ms total)
T1A6C 001:121 JLINK_WriteReg(R15 (PC), 0x200000FA)  returns 0x00 (0000ms, 0711ms total)
T1A6C 001:121 JLINK_WriteReg(XPSR, 0x01000000)  returns 0x00 (0000ms, 0711ms total)
T1A6C 001:121 JLINK_WriteReg(MSP, 0x20001000)  returns 0x00 (0000ms, 0711ms total)
T1A6C 001:121 JLINK_WriteReg(PSP, 0x20001000)  returns 0x00 (0000ms, 0711ms total)
T1A6C 001:121 JLINK_WriteReg(CFBP, 0x00000000)  returns 0x00 (0000ms, 0711ms total)
T1A6C 001:121 JLINK_SetBPEx(Addr = 0x20000000, Type = 0xFFFFFFF2)  returns 0x00000011 (0000ms, 0711ms total)
T1A6C 001:121 JLINK_Go() (0002ms, 0713ms total)
T1A6C 001:123 JLINK_IsHalted()  returns FALSE (0000ms, 0713ms total)
T1A6C 001:125 JLINK_IsHalted()  returns FALSE (0000ms, 0713ms total)
T1A6C 001:126 JLINK_IsHalted()  returns FALSE (0001ms, 0714ms total)
T1A6C 001:128 JLINK_IsHalted()  returns FALSE (0001ms, 0714ms total)
T1A6C 001:130 JLINK_IsHalted()  returns FALSE (0001ms, 0714ms total)
T1A6C 001:132 JLINK_IsHalted()  returns FALSE (0000ms, 0713ms total)
T1A6C 001:139 JLINK_IsHalted()  returns FALSE (0001ms, 0714ms total)
T1A6C 001:142 JLINK_IsHalted()  returns FALSE (0000ms, 0713ms total)
T1A6C 001:143 JLINK_IsHalted()  returns FALSE (0001ms, 0714ms total)
T1A6C 001:145 JLINK_IsHalted()  returns FALSE (0001ms, 0714ms total)
